
**** 04/21/23 15:41:46 ******* PSpice 17.4.0 (Nov 2018) ******* ID# 0 ********

 ** Profile: "SCHEMATIC1-MPQ8112"  [ D:\Model build\MPQ8112\MPQ8112_Pspice\MPQ8112_Pspice_encrypt_20230421\mpq8112-pspicefiles\schema


 ****     CIRCUIT DESCRIPTION


******************************************************************************




** Creating circuit file "MPQ8112.cir" 
** WARNING: THIS AUTOMATICALLY GENERATED FILE MAY BE OVERWRITTEN BY SUBSEQUENT SIMULATIONS

*Libraries: 
* Profile Libraries :
* Local Libraries :
.LIB "../../../mpq8112-pspicefiles/schematic1/mpq8112.lib" 
* From [PSPICE NETLIST] section of C:\SPB_Data\cdssetup\OrCAD_PSpice\17.4.0\PSpice.ini file:
.lib "nom.lib" 

*Analysis directives: 
.TRAN  0 3m 0 100n 
.OPTIONS ADVCONV
.PROBE64 V(alias(*)) I(alias(*)) W(alias(*)) D(alias(*)) NOISE(alias(*)) 
.INC "..\SCHEMATIC1.net" 



**** INCLUDING SCHEMATIC1.net ****
* source MPQ8112
C_C1         0 VCC  10u  TC=0,0 
R_R3         N00944 VCC  100m TC=0,0 
R_R4         0 N00944  12 TC=0,0 
V_V4         VCC 0  
+PWL 0.5m 0 1m 12 2m 12 
C_C3         0 N01503  100n  TC=0,0 
C_C2         0 VCC  1u  TC=0,0 
C_C4         0 N01593  5p  TC=0,0 
V_V6         N01503 0 5
X_U1         0 N01593 VCC N00944 N01503 VCC MPQ8112

**** RESUMING MPQ8112.cir ****
.END

WARNING(ORPSIM-15223): Library file "D:\Model build\MPQ8112\MPQ8112_Pspice\MPQ8112_Pspice_encrypt_20230421\mpq8112-pspicefiles\schematic1\mpq8112.lib" has changed since index file mpq8112.ind was created.

WARNING(ORPSIM-15227): The timestamp changed from Fri Apr 21 15:29:54 2023 to Fri Apr 21 15:35:07 2023.

INFO(ORPSIM-15422): Making new index file mpq8112.ind for library file mpq8112.lib.

Index has 31 entries from 1 file(s).

**** 04/21/23 15:41:46 ******* PSpice 17.4.0 (Nov 2018) ******* ID# 0 ********

 ** Profile: "SCHEMATIC1-MPQ8112"  [ D:\Model build\MPQ8112\MPQ8112_Pspice\MPQ8112_Pspice_encrypt_20230421\mpq8112-pspicefiles\schema


 ****     INITIAL TRANSIENT SOLUTION       TEMPERATURE =   27.000 DEG C


******************************************************************************



 NODE   VOLTAGE     NODE   VOLTAGE     NODE   VOLTAGE     NODE   VOLTAGE


(  VCC)    0.0000  (N00944)    0.0000 (N01503)    5.0000 (N01593) 233.0E-24 




    VOLTAGE SOURCE CURRENTS
    NAME         CURRENT

    V_V4         0.000E+00
    V_V6         0.000E+00

    TOTAL POWER DISSIPATION   0.00E+00  WATTS



          JOB CONCLUDED

**** 04/21/23 15:41:46 ******* PSpice 17.4.0 (Nov 2018) ******* ID# 0 ********

 ** Profile: "SCHEMATIC1-MPQ8112"  [ D:\Model build\MPQ8112\MPQ8112_Pspice\MPQ8112_Pspice_encrypt_20230421\mpq8112-pspicefiles\schema


 ****     JOB STATISTICS SUMMARY


******************************************************************************



  License check-out time            =        4.06
  Total job time (using Solver 1)   =        3.19
